time;V(IN_CODEC_BUF);V(IN_JACK_BUF);
0;0,9;0;
1e-07;0,900042;0,00314159;
1,12121e-07;0,900047;0,00352239;
1,36363e-07;0,90006;0,00428397;
1,84847e-07;0,900093;0,00580715;
2,81816e-07;0,900185;0,00885349;
4,75752e-07;0,90045;0,0149462;
8,63625e-07;0,901169;0,0271315;
1,32655e-06;0,902186;0,0416745;
2,13729e-06;0,904073;0,067143;
3,5497e-06;0,907409;0,111508;
6,37452e-06;0,914078;0,200208;
1,09477e-05;0,924864;0,343663;
1,82175e-05;0,941962;0,57107;
2,82175e-05;0,96533;0,881841;
3,82175e-05;0,988437;1,18913;
4,82175e-05;1,01119;1,49173;
5,82175e-05;1,03351;1,78844;
6,82175e-05;1,05529;2,07809;
7,82175e-05;1,07646;2,35955;
8,82175e-05;1,09693;2,63168;
9,82175e-05;1,11662;2,89344;
0,000108217;1,13545;3,14377;
0,000118217;1,15335;3,3817;
0,000128217;1,17025;3,60628;
0,000138217;1,18608;3,81663;
0,000148217;1,20078;4,01192;
0,000158217;1,21429;4,19137;
0,000168217;1,22655;4,35428;
0,000178217;1,23753;4,50001;
0,000188217;1,24717;4,62798;
0,000198217;1,25543;4,73768;
0,000208217;1,26229;4,82869;
0,000218217;1,26772;4,90064;
0,000228217;1,2717;4,95324;
0,000238217;1,2742;4,9863;
0,000248217;1,27523;4,99969;
0,000258217;1,27477;4,99334;
0,000268217;1,27283;4,96728;
0,000278217;1,26942;4,92162;
0,000288217;1,26454;4,85654;
0,000298217;1,25823;4,77229;
0,000308217;1,2505;4,66921;
0,000318217;1,24138;4,54769;
0,000328217;1,23091;4,40824;
0,000338217;1,21913;4,25138;
0,000348217;1,2061;4,07775;
0,000358217;1,19185;3,88802;
0,000368217;1,17644;3,68295;
0,000378217;1,15995;3,46334;
0,000388217;1,14242;3,23007;
0,000398217;1,12394;2,98405;
0,000408217;1,10457;2,72625;
0,000418217;1,08439;2,45769;
0,000428217;1,06348;2,17943;
0,000438217;1,04192;1,89257;
0,000448217;1,01979;1,59825;
0,000458217;0,997198;1,29761;
0,000468217;0,974214;0,991855;
0,000478217;0,950936;0,682184;
0,000488217;0,927453;0,369821;
0,000498217;0,90386;0,0559987;
0,000508217;0,880249;-0,258045;
0,000518217;0,856713;-0,57107;
0,000528217;0,833345;-0,881841;
0,000538217;0,810238;-1,18913;
0,000548217;0,787483;-1,49173;
0,000558217;0,765169;-1,78844;
0,000568217;0,743384;-2,07809;
0,000578217;0,722215;-2,35955;
0,000588217;0,701745;-2,63168;
0,000598217;0,682055;-2,89344;
0,000608217;0,663223;-3,14377;
0,000618217;0,645322;-3,3817;
0,000628217;0,628424;-3,60628;
0,000638217;0,612594;-3,81663;
0,000648217;0,597897;-4,01192;
0,000658217;0,584389;-4,19137;
0,000668217;0,572124;-4,35428;
0,000678217;0,561151;-4,50001;
0,000688217;0,551512;-4,62798;
0,000698217;0,543246;-4,73768;
0,000708217;0,536385;-4,82869;
0,000718217;0,530957;-4,90064;
0,000728217;0,526982;-4,95324;
0,000738217;0,524477;-4,9863;
0,000748217;0,523452;-4,99969;
0,000758217;0,52391;-4,99334;
0,000768217;0,525849;-4,96728;
0,000778217;0,529263;-4,92162;
0,000788217;0,534137;-4,85654;
0,000798217;0,540452;-4,77229;
0,000808217;0,548184;-4,66921;
0,000818217;0,557302;-4,54769;
0,000828217;0,567769;-4,40824;
0,000838217;0,579545;-4,25138;
0,000848217;0,592584;-4,07775;
0,000858217;0,606832;-3,88802;
0,000868217;0,622236;-3,68295;
0,000878217;0,638732;-3,46334;
0,000888217;0,656258;-3,23007;
0,000898217;0,674743;-2,98405;
0,000908217;0,694114;-2,72625;
0,000918217;0,714295;-2,45769;
0,000928217;0,735206;-2,17943;
0,000938217;0,756765;-1,89257;
0,000948217;0,778887;-1,59825;
0,000958217;0,801484;-1,29761;
0,000968217;0,824468;-0,991855;
0,000978217;0,847746;-0,682184;
0,000988217;0,871229;-0,369821;
0,000998217;0,894822;-0,0559987;
0,00100822;0,918434;0,258045;
0,00101822;0,94197;0,57107;
0,00102822;0,965337;0,881841;
0,00103822;0,988445;1,18913;
0,00104822;1,0112;1,49173;
0,00105822;1,03351;1,78844;
0,00106822;1,0553;2,07809;
0,00107822;1,07647;2,35955;
0,00108822;1,09694;2,63168;
0,00109822;1,11663;2,89344;
0,00110822;1,13546;3,14377;
0,00111822;1,15336;3,3817;
0,00112822;1,17026;3,60628;
0,00113822;1,18609;3,81663;
0,00114822;1,20079;4,01192;
0,00115822;1,2143;4,19137;
0,00116822;1,22656;4,35428;
0,00117822;1,23753;4,50001;
0,00118822;1,24717;4,62798;
0,00119822;1,25544;4,73768;
0,00120822;1,2623;4,82869;
0,00121822;1,26773;4,90064;
0,00122822;1,2717;4,95324;
0,00123822;1,27421;4,9863;
0,00124822;1,27523;4,99969;
0,00125822;1,27478;4,99334;
0,00126822;1,27284;4,96728;
0,00127822;1,26942;4,92162;
0,00128822;1,26455;4,85654;
0,00129822;1,25823;4,77229;
0,00130822;1,2505;4,66921;
0,00131822;1,24139;4,54769;
0,00132822;1,23092;4,40824;
0,00133822;1,21914;4,25138;
0,00134822;1,2061;4,07775;
0,00135822;1,19186;3,88802;
0,00136822;1,17645;3,68295;
0,00137822;1,15996;3,46334;
0,00138822;1,14243;3,23007;
0,00139822;1,12395;2,98405;
0,00140822;1,10457;2,72625;
0,00141822;1,08439;2,45769;
0,00142822;1,06348;2,17943;
0,00143822;1,04192;1,89257;
0,00144822;1,0198;1,59825;
0,00145822;0,997205;1,29761;
0,00146822;0,974222;0,991855;
0,00147822;0,950943;0,682184;
0,00148822;0,927461;0,369821;
0,00149822;0,903867;0,0559987;
0,00150822;0,880256;-0,258045;
0,00151822;0,85672;-0,57107;
0,00152822;0,833353;-0,881841;
0,00153822;0,810246;-1,18913;
0,00154822;0,78749;-1,49173;
0,00155822;0,765176;-1,78844;
0,00156822;0,743392;-2,07809;
0,00157822;0,722223;-2,35955;
0,00158822;0,701753;-2,63168;
0,00159822;0,682063;-2,89344;
0,00160822;0,66323;-3,14377;
0,00161822;0,645329;-3,3817;
0,00162822;0,628431;-3,60628;
0,00163822;0,612602;-3,81663;
0,00164822;0,597904;-4,01192;
0,00165822;0,584396;-4,19137;
0,00166822;0,572132;-4,35428;
0,00167822;0,561158;-4,50001;
0,00168822;0,551519;-4,62798;
0,00169822;0,543253;-4,73768;
0,00170822;0,536392;-4,82869;
0,00171822;0,530964;-4,90064;
0,00172822;0,52699;-4,95324;
0,00173822;0,524485;-4,9863;
0,00174822;0,523459;-4,99969;
0,00175822;0,523917;-4,99334;
0,00176822;0,525857;-4,96728;
0,00177822;0,52927;-4,92162;
0,00178822;0,534144;-4,85654;
0,00179822;0,54046;-4,77229;
0,00180822;0,548191;-4,66921;
0,00181822;0,557309;-4,54769;
0,00182822;0,567777;-4,40824;
0,00183822;0,579553;-4,25138;
0,00184822;0,592591;-4,07775;
0,00185822;0,60684;-3,88802;
0,00186822;0,622243;-3,68295;
0,00187822;0,63874;-3,46334;
0,00188822;0,656265;-3,23007;
0,00189822;0,67475;-2,98405;
0,00190822;0,694121;-2,72625;
0,00191822;0,714302;-2,45769;
0,00192822;0,735213;-2,17943;
0,00193822;0,756772;-1,89257;
0,00194822;0,778894;-1,59825;
0,00195822;0,801491;-1,29761;
0,00196822;0,824475;-0,991855;
0,00197822;0,847754;-0,682184;
0,00198822;0,871236;-0,369821;
0,00199822;0,89483;-0,0559987;
0,00200822;0,918441;0,258045;
0,00201822;0,941977;0,57107;
0,00202822;0,965345;0,881841;
0,00203822;0,988452;1,18913;
0,00204822;1,01121;1,49173;
0,00205822;1,03352;1,78844;
0,00206822;1,05531;2,07809;
0,00207822;1,07648;2,35955;
0,00208822;1,09695;2,63168;
0,00209822;1,11664;2,89344;
0,00210822;1,13547;3,14377;
0,00211822;1,15337;3,3817;
0,00212822;1,17027;3,60628;
0,00213822;1,1861;3,81663;
0,00214822;1,20079;4,01192;
0,00215822;1,2143;4,19137;
0,00216822;1,22657;4,35428;
0,00217822;1,23754;4,50001;
0,00218822;1,24718;4,62798;
0,00219822;1,25545;4,73768;
0,00220822;1,26231;4,82869;
0,00221822;1,26774;4,90064;
0,00222822;1,27171;4,95324;
0,00223822;1,27422;4,9863;
0,00224822;1,27524;4,99969;
0,00225822;1,27478;4,99334;
0,00226822;1,27284;4,96728;
0,00227822;1,26943;4,92162;
0,00228822;1,26456;4,85654;
0,00229822;1,25824;4,77229;
0,00230822;1,25051;4,66921;
0,00231822;1,24139;4,54769;
0,00232822;1,23093;4,40824;
0,00233822;1,21915;4,25138;
0,00234822;1,20611;4,07775;
0,00235822;1,19186;3,88802;
0,00236822;1,17646;3,68295;
0,00237822;1,15996;3,46334;
0,00238822;1,14244;3,23007;
0,00239822;1,12395;2,98405;
0,00240822;1,10458;2,72625;
0,00241822;1,0844;2,45769;
0,00242822;1,06349;2,17943;
0,00243822;1,04193;1,89257;
0,00244822;1,01981;1,59825;
0,00245822;0,997212;1,29761;
0,00246822;0,974229;0,991855;
0,00247822;0,95095;0,682184;
0,00248822;0,927468;0,369821;
0,00249822;0,903874;0,0559987;
0,00250822;0,880263;-0,258045;
0,00251822;0,856728;-0,57107;
0,00252822;0,83336;-0,881841;
0,00253822;0,810253;-1,18913;
0,00254822;0,787497;-1,49173;
0,00255822;0,765183;-1,78844;
0,00256822;0,743399;-2,07809;
0,00257822;0,72223;-2,35955;
0,00258822;0,70176;-2,63168;
0,00259822;0,68207;-2,89344;
0,00260822;0,663237;-3,14377;
0,00261822;0,645336;-3,3817;
0,00262822;0,628438;-3,60628;
0,00263822;0,612609;-3,81663;
0,00264822;0,597911;-4,01192;
0,00265822;0,584404;-4,19137;
0,00266822;0,572139;-4,35428;
0,00267822;0,561165;-4,50001;
0,00268822;0,551526;-4,62798;
0,00269822;0,54326;-4,73768;
0,00270822;0,5364;-4,82869;
0,00271822;0,530971;-4,90064;
0,00272822;0,526997;-4,95324;
0,00273822;0,524492;-4,9863;
0,00274822;0,523466;-4,99969;
0,00275822;0,523924;-4,99334;
0,00276822;0,525864;-4,96728;
0,00277822;0,529277;-4,92162;
0,00278822;0,534151;-4,85654;
0,00279822;0,540467;-4,77229;
0,00280822;0,548199;-4,66921;
0,00281822;0,557316;-4,54769;
0,00282822;0,567784;-4,40824;
0,00283822;0,57956;-4,25138;
0,00284822;0,592598;-4,07775;
0,00285822;0,606847;-3,88802;
0,00286822;0,62225;-3,68295;
0,00287822;0,638747;-3,46334;
0,00288822;0,656272;-3,23007;
0,00289822;0,674757;-2,98405;
0,00290822;0,694128;-2,72625;
0,00291822;0,714309;-2,45769;
0,00292822;0,73522;-2,17943;
0,00293822;0,75678;-1,89257;
0,00294822;0,778901;-1,59825;
0,00295822;0,801499;-1,29761;
0,00296822;0,824482;-0,991855;
0,00297822;0,847761;-0,682184;
0,00298822;0,871243;-0,369821;
0,00299822;0,894837;-0,0559987;
0,00300822;0,918448;0,258045;
0,00301822;0,941984;0,57107;
0,00302822;0,965352;0,881841;
0,00303822;0,988459;1,18913;
0,00304822;1,01121;1,49173;
0,00305822;1,03353;1,78844;
0,00306822;1,05531;2,07809;
0,00307822;1,07648;2,35955;
0,00308822;1,09695;2,63168;
0,00309822;1,11664;2,89344;
0,00310822;1,13548;3,14377;
0,00311822;1,15338;3,3817;
0,00312822;1,17028;3,60628;
0,00313822;1,1861;3,81663;
0,00314822;1,2008;4,01192;
0,00315822;1,21431;4,19137;
0,00316822;1,22657;4,35428;
0,00317822;1,23755;4,50001;
0,00318822;1,24719;4,62798;
0,00319822;1,25545;4,73768;
0,00320822;1,26231;4,82869;
0,00321822;1,26774;4,90064;
0,00322822;1,27172;4,95324;
0,00323822;1,27422;4,9863;
0,00324822;1,27525;4,99969;
0,00325822;1,27479;4,99334;
0,00326822;1,27285;4,96728;
0,00327822;1,26944;4,92162;
0,00328822;1,26456;4,85654;
0,00329822;1,25825;4,77229;
0,00330822;1,25052;4,66921;
0,00331822;1,2414;4,54769;
0,00332822;1,23093;4,40824;
0,00333822;1,21916;4,25138;
0,00334822;1,20612;4,07775;
0,00335822;1,19187;3,88802;
0,00336822;1,17647;3,68295;
0,00337822;1,15997;3,46334;
0,00338822;1,14244;3,23007;
0,00339822;1,12396;2,98405;
0,00340822;1,10459;2,72625;
0,00341822;1,08441;2,45769;
0,00342822;1,0635;2,17943;
0,00343822;1,04194;1,89257;
0,00344822;1,01982;1,59825;
0,00345822;0,997219;1,29761;
0,00346822;0,974236;0,991855;
0,00347822;0,950957;0,682184;
0,00348822;0,927475;0,369821;
0,00349822;0,903882;0,0559987;
0,00350822;0,88027;-0,258045;
0,00351822;0,856735;-0,57107;
0,00352822;0,833367;-0,881841;
0,00353822;0,81026;-1,18913;
0,00354822;0,787505;-1,49173;
0,00355822;0,765191;-1,78844;
0,00356822;0,743406;-2,07809;
0,00357822;0,722237;-2,35955;
0,00358822;0,701767;-2,63168;
0,00359822;0,682077;-2,89344;
0,00360822;0,663244;-3,14377;
0,00361822;0,645343;-3,3817;
0,00362822;0,628445;-3,60628;
0,00363822;0,612616;-3,81663;
0,00364822;0,597919;-4,01192;
0,00365822;0,584411;-4,19137;
0,00366822;0,572146;-4,35428;
0,00367822;0,561172;-4,50001;
0,00368822;0,551534;-4,62798;
0,00369822;0,543268;-4,73768;
0,00370822;0,536407;-4,82869;
0,00371822;0,530978;-4,90064;
0,00372822;0,527004;-4,95324;
0,00373822;0,524499;-4,9863;
0,00374822;0,523473;-4,99969;
0,00375822;0,523931;-4,99334;
0,00376822;0,525871;-4,96728;
0,00377822;0,529284;-4,92162;
0,00378822;0,534158;-4,85654;
0,00379822;0,540474;-4,77229;
0,00380822;0,548206;-4,66921;
0,00381822;0,557323;-4,54769;
0,00382822;0,567791;-4,40824;
0,00383822;0,579567;-4,25138;
0,00384822;0,592605;-4,07775;
0,00385822;0,606854;-3,88802;
0,00386822;0,622257;-3,68295;
0,00387822;0,638754;-3,46334;
0,00388822;0,656279;-3,23007;
0,00389822;0,674764;-2,98405;
0,00390822;0,694135;-2,72625;
0,00391822;0,714316;-2,45769;
0,00392822;0,735228;-2,17943;
0,00393822;0,756787;-1,89257;
0,00394822;0,778909;-1,59825;
0,00395822;0,801506;-1,29761;
0,00396822;0,824489;-0,991855;
0,00397822;0,847768;-0,682184;
0,00398822;0,87125;-0,369821;
0,00399822;0,894844;-0,0559987;
0,00400822;0,918455;0,258045;
0,00401822;0,941991;0,57107;
0,00402822;0,965359;0,881841;
0,00403822;0,988466;1,18913;
0,00404822;1,01122;1,49173;
0,00405822;1,03354;1,78844;
0,00406822;1,05532;2,07809;
0,00407822;1,07649;2,35955;
0,00408822;1,09696;2,63168;
0,00409822;1,11665;2,89344;
0,00410822;1,13548;3,14377;
0,00411822;1,15338;3,3817;
0,00412822;1,17028;3,60628;
0,00413822;1,18611;3,81663;
0,00414822;1,20081;4,01192;
0,00415822;1,21432;4,19137;
0,00416822;1,22658;4,35428;
0,00417822;1,23756;4,50001;
0,00418822;1,24719;4,62798;
0,00419822;1,25546;4,73768;
0,00420822;1,26232;4,82869;
0,00421822;1,26775;4,90064;
0,00422822;1,27172;4,95324;
0,00423822;1,27423;4,9863;
0,00424822;1,27526;4,99969;
0,00425822;1,2748;4,99334;
0,00426822;1,27286;4,96728;
0,00427822;1,26945;4,92162;
0,00428822;1,26457;4,85654;
0,00429822;1,25826;4,77229;
0,00430822;1,25052;4,66921;
0,00431822;1,24141;4,54769;
0,00432822;1,23094;4,40824;
0,00433822;1,21916;4,25138;
0,00434822;1,20613;4,07775;
0,00435822;1,19188;3,88802;
0,00436822;1,17647;3,68295;
0,00437822;1,15998;3,46334;
0,00438822;1,14245;3,23007;
0,00439822;1,12397;2,98405;
0,00440822;1,1046;2,72625;
0,00441822;1,08442;2,45769;
0,00442822;1,0635;2,17943;
0,00443822;1,04195;1,89257;
0,00444822;1,01982;1,59825;
0,00445822;0,997226;1,29761;
0,00446822;0,974243;0,991855;
0,00447822;0,950964;0,682184;
0,00448822;0,927482;0,369821;
0,00449822;0,903889;0,0559987;
0,00450822;0,880278;-0,258045;
0,00451822;0,856742;-0,57107;
0,00452822;0,833374;-0,881841;
0,00453822;0,810267;-1,18913;
0,00454822;0,787512;-1,49173;
0,00455822;0,765198;-1,78844;
0,00456822;0,743413;-2,07809;
0,00457822;0,722244;-2,35955;
0,00458822;0,701774;-2,63168;
0,00459822;0,682084;-2,89344;
0,00460822;0,663251;-3,14377;
0,00461822;0,645351;-3,3817;
0,00462822;0,628452;-3,60628;
0,00463822;0,612623;-3,81663;
0,00464822;0,597926;-4,01192;
0,00465822;0,584418;-4,19137;
0,00466822;0,572153;-4,35428;
0,00467822;0,561179;-4,50001;
0,00468822;0,551541;-4,62798;
0,00469822;0,543275;-4,73768;
0,00470822;0,536414;-4,82869;
0,00471822;0,530985;-4,90064;
0,00472822;0,527011;-4,95324;
0,00473822;0,524506;-4,9863;
0,00474822;0,52348;-4,99969;
0,00475822;0,523938;-4,99334;
0,00476822;0,525878;-4,96728;
0,00477822;0,529291;-4,92162;
0,00478822;0,534166;-4,85654;
0,00479822;0,540481;-4,77229;
0,00480822;0,548213;-4,66921;
0,00481822;0,55733;-4,54769;
0,00482822;0,567798;-4,40824;
0,00483822;0,579574;-4,25138;
0,00484822;0,592612;-4,07775;
0,00485822;0,606861;-3,88802;
0,00486822;0,622264;-3,68295;
0,00487822;0,638761;-3,46334;
0,00488822;0,656286;-3,23007;
0,00489822;0,674771;-2,98405;
0,00490822;0,694142;-2,72625;
0,00491822;0,714323;-2,45769;
0,00492822;0,735235;-2,17943;
0,00493822;0,756794;-1,89257;
0,00494822;0,778916;-1,59825;
0,00495822;0,801513;-1,29761;
0,00496822;0,824496;-0,991855;
0,00497822;0,847775;-0,682184;
0,00498822;0,871257;-0,369821;
0,00499822;0,894851;-0,0559987;
0,00500822;0,918462;0,258045;
0,00501822;0,941998;0,57107;
0,00502822;0,965366;0,881841;
0,00503822;0,988473;1,18913;
0,00504822;1,01123;1,49173;
0,00505822;1,03354;1,78844;
0,00506822;1,05533;2,07809;
0,00507822;1,0765;2,35955;
0,00508822;1,09697;2,63168;
0,00509822;1,11666;2,89344;
0,00510822;1,13549;3,14377;
0,00511822;1,15339;3,3817;
0,00512822;1,17029;3,60628;
0,00513822;1,18612;3,81663;
0,00514822;1,20082;4,01192;
0,00515822;1,21432;4,19137;
0,00516822;1,22659;4,35428;
0,00517822;1,23756;4,50001;
0,00518822;1,2472;4,62798;
0,00519822;1,25547;4,73768;
0,00520822;1,26233;4,82869;
0,00521822;1,26776;4,90064;
0,00522822;1,27173;4,95324;
0,00523822;1,27424;4,9863;
0,00524822;1,27526;4,99969;
0,00525822;1,2748;4,99334;
0,00526822;1,27287;4,96728;
0,00527822;1,26945;4,92162;
0,00528822;1,26458;4,85654;
0,00529822;1,25826;4,77229;
0,00530822;1,25053;4,66921;
0,00531822;1,24141;4,54769;
0,00532822;1,23095;4,40824;
0,00533822;1,21917;4,25138;
0,00534822;1,20613;4,07775;
0,00535822;1,19188;3,88802;
0,00536822;1,17648;3,68295;
0,00537822;1,15998;3,46334;
0,00538822;1,14246;3,23007;
0,00539822;1,12397;2,98405;
0,00540822;1,1046;2,72625;
0,00541822;1,08442;2,45769;
0,00542822;1,06351;2,17943;
0,00543822;1,04195;1,89257;
0,00544822;1,01983;1,59825;
0,00545822;0,997233;1,29761;
0,00546822;0,97425;0,991855;
0,00547822;0,950971;0,682184;
0,00548822;0,927489;0,369821;
0,00549822;0,903896;0,0559987;
0,00550822;0,880285;-0,258045;
0,00551822;0,856749;-0,57107;
0,00552822;0,833381;-0,881841;
0,00553822;0,810274;-1,18913;
0,00554822;0,787519;-1,49173;
0,00555822;0,765205;-1,78844;
0,00556822;0,74342;-2,07809;
0,00557822;0,722251;-2,35955;
0,00558822;0,701781;-2,63168;
0,00559822;0,682091;-2,89344;
0,00560822;0,663258;-3,14377;
0,00561822;0,645357;-3,3817;
0,00562822;0,628459;-3,60628;
0,00563822;0,61263;-3,81663;
0,00564822;0,597933;-4,01192;
0,00565822;0,584425;-4,19137;
0,00566822;0,57216;-4,35428;
0,00567822;0,561186;-4,50001;
0,00568822;0,551548;-4,62798;
0,00569822;0,543282;-4,73768;
0,00570822;0,536421;-4,82869;
0,00571822;0,530992;-4,90064;
0,00572822;0,527018;-4,95324;
0,00573822;0,524513;-4,9863;
0,00574822;0,523487;-4,99969;
0,00575822;0,523945;-4,99334;
0,00576822;0,525885;-4,96728;
0,00577822;0,529298;-4,92162;
0,00578822;0,534172;-4,85654;
0,00579822;0,540488;-4,77229;
0,00580822;0,54822;-4,66921;
0,00581822;0,557337;-4,54769;
0,00582822;0,567805;-4,40824;
0,00583822;0,579581;-4,25138;
0,00584822;0,592619;-4,07775;
0,00585822;0,606868;-3,88802;
0,00586822;0,622271;-3,68295;
0,00587822;0,638768;-3,46334;
0,00588822;0,656293;-3,23007;
0,00589822;0,674778;-2,98405;
0,00590822;0,694149;-2,72625;
0,00591822;0,71433;-2,45769;
0,00592822;0,735242;-2,17943;
0,00593822;0,756801;-1,89257;
0,00594822;0,778922;-1,59825;
0,00595822;0,80152;-1,29761;
0,00596822;0,824503;-0,991855;
0,00597822;0,847782;-0,682184;
0,00598822;0,871264;-0,369821;
0,00599822;0,894858;-0,0559987;
0,00600822;0,918469;0,258045;
0,00601822;0,942005;0,57107;
0,00602822;0,965373;0,881841;
0,00603822;0,98848;1,18913;
0,00604822;1,01124;1,49173;
0,00605822;1,03355;1,78844;
0,00606822;1,05533;2,07809;
0,00607822;1,0765;2,35955;
0,00608822;1,09697;2,63168;
0,00609822;1,11666;2,89344;
0,00610822;1,1355;3,14377;
0,00611822;1,1534;3,3817;
0,00612822;1,1703;3,60628;
0,00613822;1,18613;3,81663;
0,00614822;1,20082;4,01192;
0,00615822;1,21433;4,19137;
0,00616822;1,2266;4,35428;
0,00617822;1,23757;4,50001;
0,00618822;1,24721;4,62798;
0,00619822;1,25547;4,73768;
0,00620822;1,26234;4,82869;
0,00621822;1,26776;4,90064;
0,00622822;1,27174;4,95324;
0,00623822;1,27424;4,9863;
0,00624822;1,27527;4,99969;
0,00625822;1,27481;4,99334;
0,00626822;1,27287;4,96728;
0,00627822;1,26946;4,92162;
0,00628822;1,26459;4,85654;
0,00629822;1,25827;4,77229;
0,00630822;1,25054;4,66921;
0,00631822;1,24142;4,54769;
0,00632822;1,23095;4,40824;
0,00633822;1,21918;4,25138;
0,00634822;1,20614;4,07775;
0,00635822;1,19189;3,88802;
0,00636822;1,17649;3,68295;
0,00637822;1,15999;3,46334;
0,00638822;1,14247;3,23007;
0,00639822;1,12398;2,98405;
0,00640822;1,10461;2,72625;
0,00641822;1,08443;2,45769;
0,00642822;1,06352;2,17943;
0,00643822;1,04196;1,89257;
0,00644822;1,01984;1,59825;
0,00645822;0,99724;1,29761;
0,00646822;0,974257;0,991855;
0,00647822;0,950978;0,682184;
0,00648822;0,927496;0,369821;
